CITIFILE A.01.01
#Momentum: B.12.00.024 (*) built: Jan 14 2016 
#Momentum Date and Time: Wed Jul 31 16:08:20 2024

NAME PortSet1/TwoP0_Dsolver_data/first_odd_mode_is_1/most_even_mode_is_1/PMLG4/LS0


CONSTANT NBR_OF_PORTS 11

VAR freq MAG 18

DATA GAMMA_1[1] RI
DATA Z0_1[1,1] RI
DATA LAMBADAI_1[1,1] RI
DATA Zcir_1[1,1] RI
DATA Ycir_1[1,1] RI

VAR_LIST_BEGIN
	 3662237.413
	 3698859.787
	 3735482.161
	 3772104.535
	 6655144.067
	 12685706.32
	 19183111.42
	 26934438.14
	 39247100.08
	 60305818.47
	 92720304.54
	 139609009.1
	 208502562.5
	 312851880.7
	 471552010.6
	 710079843.8
	 1065855227
	 1400000000
VAR_LIST_END

BEGIN
	 0.001211195606,	 0.1439895289
	 0.001223375695,	 0.1454216742
	 0.001235556443,	 0.1468537429
	 0.001247737848,	 0.1482857355
	 0.002208364387,	 0.2608243796
	 0.004224572357,	 0.4954389668
	 0.006403018166,	 0.7475113836
	 0.009007296114,	 1.047616036
	 0.01315250939,	 1.523373651
	 0.02025873054,	 2.33525133
	 0.03122465646,	 3.581972135
	 0.04712845537,	 5.381288909
	 0.07056036713,	 8.019341335
	 0.1061659195,	 12.00694888
	 0.1605433609,	 18.0605093
	 0.2427584312,	 27.14667841
	 0.3664921894,	 40.69226162
	 0.483976717,	 53.42203047
END
BEGIN
	 51.929916269698438 ,	 0.43681760908267281 
	 51.932682987669168 ,	 0.43688849340501551 
	 51.935422884180461 ,	 0.4369586913615926 
	 51.938136478053543 ,	 0.4370282151095139 
	 52.096794011140254 ,	 0.44109575177526034 
	 52.278831494908871 ,	 0.4457769306973543 
	 52.396537128385944 ,	 0.44881630605762818 
	 52.493715711700041 ,	 0.45133470102154727 
	 52.602129114466791 ,	 0.45415551540203947 
	 52.726596251520903 ,	 0.45741181805824871 
	 52.852016027413001 ,	 0.46071883535241109 
	 52.971988862191509 ,	 0.46391873072438955 
	 53.090085792309452 ,	 0.46712577392938087 
	 53.209999266358359 ,	 0.47048190213173596 
	 53.331847772263686 ,	 0.47407142777317729 
	 53.455076811974742 ,	 0.47800876107060292 
	 53.582843145295826 ,	 0.48256439127928619 
	 53.676836597562612 ,	 0.48624021605040785 
END
BEGIN
	 0.001211195606,	 0.1439895289
	 0.001223375695,	 0.1454216742
	 0.001235556443,	 0.1468537429
	 0.001247737848,	 0.1482857355
	 0.002208364387,	 0.2608243796
	 0.004224572357,	 0.4954389668
	 0.006403018166,	 0.7475113836
	 0.009007296114,	 1.047616036
	 0.01315250939,	 1.523373651
	 0.02025873054,	 2.33525133
	 0.03122465646,	 3.581972135
	 0.04712845537,	 5.381288909
	 0.07056036713,	 8.019341335
	 0.1061659195,	 12.00694888
	 0.1605433609,	 18.0605093
	 0.2427584312,	 27.14667841
	 0.3664921894,	 40.69226162
	 0.483976717,	 53.42203047
END
BEGIN
	 3.30978411507404e-010 ,	 8.62625455489164e-010 
	 3.34360152466715e-010 ,	 8.62625456162755e-010 
	 3.37272240029992e-010 ,	 8.62625456850803e-010 
	 3.40651091482094e-010 ,	 8.62625457539708e-010 
	 4.74536193326158e-010 ,	 8.62625626837713e-010 
	 1.17977032819665e-009 ,	 8.62625832715172e-010 
	 1.8080240646659e-009 ,	 8.6262633938567e-010 
	 2.57838816551843e-009 ,	 8.62627182264025e-010 
	 3.85293379753099e-009 ,	 8.6262902283496e-010 
	 6.23723121935538e-009 ,	 8.62633530802541e-010 
	 1.06526480197697e-008 ,	 8.62643621908065e-010 
	 1.93586448486022e-008 ,	 8.62664558482023e-010 
	 3.95970369913151e-008 ,	 8.62708057184264e-010 
	 9.64828687638475e-008 ,	 8.62800922146969e-010 
	 2.72486205061401e-007 ,	 8.63000091834666e-010 
	 8.50678117877979e-007 ,	 8.63421188354577e-010 
	 2.80583047872207e-006 ,	 8.64299160480605e-010 
	 6.36932305372873e-006 ,	 8.6537513337326e-010 
END
BEGIN
	 0.01757219967,	 4.538957274e-008
	 0.01774796429,	 4.538473454e-008
	 0.01792372904,	 4.5379944e-008
	 0.0180994939,	 4.53752002e-008
	 0.03193661558,	 4.509913542e-008
	 0.06088152075,	 4.478548094e-008
	 0.09206837271,	 4.45844286e-008
	 0.1292751944,	 4.441947818e-008
	 0.1883792631,	 4.423658136e-008
	 0.2894742613,	 4.402811237e-008
	 0.4451057515,	 4.381981626e-008
	 0.6702913385,	 4.36225174e-008
	 1.0013215033532015 ,	 4.3430756114294386e-008 
	 1.5032013141747009 ,	 4.3239781548672389e-008 
	 2.2679288468675294 ,	 4.3052253442635865e-008 
	 3.42141613173255 ,	 4.2874775409445023e-008 
	 5.1529114769437259 ,	 4.2713795472443769e-008 
	 6.7927008034158325 ,	 4.2617200950780528e-008 
END
CITIFILE A.01.01
NAME PortSet2/TwoP0_Dsolver_data/first_odd_mode_is_1/most_even_mode_is_1/PMLG4/LS0

VAR freq MAG 18

DATA GAMMA_2[1] RI
DATA Z0_2[1,1] RI
DATA LAMBADAI_2[1,1] RI
DATA Zcir_2[1,1] RI
DATA Ycir_2[1,1] RI

VAR_LIST_BEGIN
	 3662237.413
	 3698859.787
	 3735482.161
	 3772104.535
	 6655144.067
	 12685706.32
	 19183111.42
	 26934438.14
	 39247100.08
	 60305818.47
	 92720304.54
	 139609009.1
	 208502562.5
	 312851880.7
	 471552010.6
	 710079843.8
	 1065855227
	 1400000000
VAR_LIST_END

BEGIN
	 0.001211195606,	 0.1439895289
	 0.001223375695,	 0.1454216742
	 0.001235556443,	 0.1468537429
	 0.001247737848,	 0.1482857355
	 0.002208364387,	 0.2608243796
	 0.004224572357,	 0.4954389668
	 0.006403018166,	 0.7475113836
	 0.009007296114,	 1.047616036
	 0.01315250939,	 1.523373651
	 0.02025873054,	 2.33525133
	 0.03122465646,	 3.581972135
	 0.04712845537,	 5.381288909
	 0.07056036713,	 8.019341335
	 0.1061659195,	 12.00694888
	 0.1605433609,	 18.0605093
	 0.2427584312,	 27.14667841
	 0.3664921894,	 40.69226162
	 0.483976717,	 53.42203047
END
BEGIN
	 51.929916269698438 ,	 0.43681760908267281 
	 51.932682987669168 ,	 0.43688849340501551 
	 51.935422884180461 ,	 0.4369586913615926 
	 51.938136478053543 ,	 0.4370282151095139 
	 52.096794011140254 ,	 0.44109575177526034 
	 52.278831494908871 ,	 0.4457769306973543 
	 52.396537128385944 ,	 0.44881630605762818 
	 52.493715711700041 ,	 0.45133470102154727 
	 52.602129114466791 ,	 0.45415551540203947 
	 52.726596251520903 ,	 0.45741181805824871 
	 52.852016027413001 ,	 0.46071883535241109 
	 52.971988862191509 ,	 0.46391873072438955 
	 53.090085792309452 ,	 0.46712577392938087 
	 53.209999266358359 ,	 0.47048190213173596 
	 53.331847772263686 ,	 0.47407142777317729 
	 53.455076811974742 ,	 0.47800876107060292 
	 53.582843145295826 ,	 0.48256439127928619 
	 53.676836597562612 ,	 0.48624021605040785 
END
BEGIN
	 0.001211195606,	 0.1439895289
	 0.001223375695,	 0.1454216742
	 0.001235556443,	 0.1468537429
	 0.001247737848,	 0.1482857355
	 0.002208364387,	 0.2608243796
	 0.004224572357,	 0.4954389668
	 0.006403018166,	 0.7475113836
	 0.009007296114,	 1.047616036
	 0.01315250939,	 1.523373651
	 0.02025873054,	 2.33525133
	 0.03122465646,	 3.581972135
	 0.04712845537,	 5.381288909
	 0.07056036713,	 8.019341335
	 0.1061659195,	 12.00694888
	 0.1605433609,	 18.0605093
	 0.2427584312,	 27.14667841
	 0.3664921894,	 40.69226162
	 0.483976717,	 53.42203047
END
BEGIN
	 3.30978411507404e-010 ,	 8.62625455489164e-010 
	 3.34360152466715e-010 ,	 8.62625456162755e-010 
	 3.37272240029992e-010 ,	 8.62625456850803e-010 
	 3.40651091482094e-010 ,	 8.62625457539708e-010 
	 4.74536193326158e-010 ,	 8.62625626837713e-010 
	 1.17977032819665e-009 ,	 8.62625832715172e-010 
	 1.8080240646659e-009 ,	 8.6262633938567e-010 
	 2.57838816551843e-009 ,	 8.62627182264025e-010 
	 3.85293379753099e-009 ,	 8.6262902283496e-010 
	 6.23723121935538e-009 ,	 8.62633530802541e-010 
	 1.06526480197697e-008 ,	 8.62643621908065e-010 
	 1.93586448486022e-008 ,	 8.62664558482023e-010 
	 3.95970369913151e-008 ,	 8.62708057184264e-010 
	 9.64828687638475e-008 ,	 8.62800922146969e-010 
	 2.72486205061401e-007 ,	 8.63000091834666e-010 
	 8.50678117877979e-007 ,	 8.63421188354577e-010 
	 2.80583047872207e-006 ,	 8.64299160480605e-010 
	 6.36932305372873e-006 ,	 8.6537513337326e-010 
END
BEGIN
	 0.01757219967,	 4.538957274e-008
	 0.01774796429,	 4.538473454e-008
	 0.01792372904,	 4.5379944e-008
	 0.0180994939,	 4.53752002e-008
	 0.03193661558,	 4.509913542e-008
	 0.06088152075,	 4.478548094e-008
	 0.09206837271,	 4.45844286e-008
	 0.1292751944,	 4.441947818e-008
	 0.1883792631,	 4.423658136e-008
	 0.2894742613,	 4.402811237e-008
	 0.4451057515,	 4.381981626e-008
	 0.6702913385,	 4.36225174e-008
	 1.0013215033532015 ,	 4.3430756114294386e-008 
	 1.5032013141747009 ,	 4.3239781548672389e-008 
	 2.2679288468675294 ,	 4.3052253442635865e-008 
	 3.42141613173255 ,	 4.2874775409445023e-008 
	 5.1529114769437259 ,	 4.2713795472443769e-008 
	 6.7927008034158325 ,	 4.2617200950780528e-008 
END
CITIFILE A.01.01
NAME PortSet3/TwoP0_Dsolver_data/first_odd_mode_is_1/most_even_mode_is_1/PMLG4/LS0

VAR freq MAG 18

DATA GAMMA_2[1] RI
DATA Z0_2[1,1] RI
DATA LAMBADAI_2[1,1] RI
DATA Zcir_2[1,1] RI
DATA Ycir_2[1,1] RI

VAR_LIST_BEGIN
	 3662237.413
	 3698859.787
	 3735482.161
	 3772104.535
	 6655144.067
	 12685706.32
	 19183111.42
	 26934438.14
	 39247100.08
	 60305818.47
	 92720304.54
	 139609009.1
	 208502562.5
	 312851880.7
	 471552010.6
	 710079843.8
	 1065855227
	 1400000000
VAR_LIST_END

BEGIN
	 0.001211195606,	 0.1439895289
	 0.001223375695,	 0.1454216742
	 0.001235556443,	 0.1468537429
	 0.001247737848,	 0.1482857355
	 0.002208364387,	 0.2608243796
	 0.004224572357,	 0.4954389668
	 0.006403018166,	 0.7475113836
	 0.009007296114,	 1.047616036
	 0.01315250939,	 1.523373651
	 0.02025873054,	 2.33525133
	 0.03122465646,	 3.581972135
	 0.04712845537,	 5.381288909
	 0.07056036713,	 8.019341335
	 0.1061659195,	 12.00694888
	 0.1605433609,	 18.0605093
	 0.2427584312,	 27.14667841
	 0.3664921894,	 40.69226162
	 0.483976717,	 53.42203047
END
BEGIN
	 51.929916269698438 ,	 0.43681760908267281 
	 51.932682987669168 ,	 0.43688849340501551 
	 51.935422884180461 ,	 0.4369586913615926 
	 51.938136478053543 ,	 0.4370282151095139 
	 52.096794011140254 ,	 0.44109575177526034 
	 52.278831494908871 ,	 0.4457769306973543 
	 52.396537128385944 ,	 0.44881630605762818 
	 52.493715711700041 ,	 0.45133470102154727 
	 52.602129114466791 ,	 0.45415551540203947 
	 52.726596251520903 ,	 0.45741181805824871 
	 52.852016027413001 ,	 0.46071883535241109 
	 52.971988862191509 ,	 0.46391873072438955 
	 53.090085792309452 ,	 0.46712577392938087 
	 53.209999266358359 ,	 0.47048190213173596 
	 53.331847772263686 ,	 0.47407142777317729 
	 53.455076811974742 ,	 0.47800876107060292 
	 53.582843145295826 ,	 0.48256439127928619 
	 53.676836597562612 ,	 0.48624021605040785 
END
BEGIN
	 0.001211195606,	 0.1439895289
	 0.001223375695,	 0.1454216742
	 0.001235556443,	 0.1468537429
	 0.001247737848,	 0.1482857355
	 0.002208364387,	 0.2608243796
	 0.004224572357,	 0.4954389668
	 0.006403018166,	 0.7475113836
	 0.009007296114,	 1.047616036
	 0.01315250939,	 1.523373651
	 0.02025873054,	 2.33525133
	 0.03122465646,	 3.581972135
	 0.04712845537,	 5.381288909
	 0.07056036713,	 8.019341335
	 0.1061659195,	 12.00694888
	 0.1605433609,	 18.0605093
	 0.2427584312,	 27.14667841
	 0.3664921894,	 40.69226162
	 0.483976717,	 53.42203047
END
BEGIN
	 3.30978411507404e-010 ,	 8.62625455489164e-010 
	 3.34360152466715e-010 ,	 8.62625456162755e-010 
	 3.37272240029992e-010 ,	 8.62625456850803e-010 
	 3.40651091482094e-010 ,	 8.62625457539708e-010 
	 4.74536193326158e-010 ,	 8.62625626837713e-010 
	 1.17977032819665e-009 ,	 8.62625832715172e-010 
	 1.8080240646659e-009 ,	 8.6262633938567e-010 
	 2.57838816551843e-009 ,	 8.62627182264025e-010 
	 3.85293379753099e-009 ,	 8.6262902283496e-010 
	 6.23723121935538e-009 ,	 8.62633530802541e-010 
	 1.06526480197697e-008 ,	 8.62643621908065e-010 
	 1.93586448486022e-008 ,	 8.62664558482023e-010 
	 3.95970369913151e-008 ,	 8.62708057184264e-010 
	 9.64828687638475e-008 ,	 8.62800922146969e-010 
	 2.72486205061401e-007 ,	 8.63000091834666e-010 
	 8.50678117877979e-007 ,	 8.63421188354577e-010 
	 2.80583047872207e-006 ,	 8.64299160480605e-010 
	 6.36932305372873e-006 ,	 8.6537513337326e-010 
END
BEGIN
	 0.01757219967,	 4.538957274e-008
	 0.01774796429,	 4.538473454e-008
	 0.01792372904,	 4.5379944e-008
	 0.0180994939,	 4.53752002e-008
	 0.03193661558,	 4.509913542e-008
	 0.06088152075,	 4.478548094e-008
	 0.09206837271,	 4.45844286e-008
	 0.1292751944,	 4.441947818e-008
	 0.1883792631,	 4.423658136e-008
	 0.2894742613,	 4.402811237e-008
	 0.4451057515,	 4.381981626e-008
	 0.6702913385,	 4.36225174e-008
	 1.0013215033532015 ,	 4.3430756114294386e-008 
	 1.5032013141747009 ,	 4.3239781548672389e-008 
	 2.2679288468675294 ,	 4.3052253442635865e-008 
	 3.42141613173255 ,	 4.2874775409445023e-008 
	 5.1529114769437259 ,	 4.2713795472443769e-008 
	 6.7927008034158325 ,	 4.2617200950780528e-008 
END
CITIFILE A.01.01
NAME PortSet4/TwoP0_Dsolver_data/first_odd_mode_is_1/most_even_mode_is_1/PMLG4/LS0

VAR freq MAG 18

DATA GAMMA_4[1] RI
DATA Z0_4[1,1] RI
DATA LAMBADAI_4[1,1] RI
DATA Zcir_4[1,1] RI
DATA Ycir_4[1,1] RI

VAR_LIST_BEGIN
	 3662237.413
	 3698859.787
	 3735482.161
	 3772104.535
	 6695944.323
	 12823498.69
	 19447440.57
	 27385689.1
	 40053836.54
	 61792862.4
	 95353208.38
	 144072403.6
	 215945561.6
	 325246982.2
	 492131012.9
	 744016811.2
	 1121611058
	 1400000000
VAR_LIST_END

BEGIN
	 0.001105465269,	 0.1370794921
	 0.00111657965,	 0.1384432135
	 0.001127694609,	 0.1398068649
	 0.001138810142,	 0.1411704468
	 0.002027740112,	 0.2498550278
	 0.003896808425,	 0.476891866
	 0.005922806434,	 0.7216609212
	 0.008355670186,	 1.014417266
	 0.01224572319,	 1.48071077
	 0.0189360817,	 2.279148092
	 0.02928923448,	 3.50892853
	 0.04435474479,	 5.290210245
	 0.06663447626,	 7.912453895
	 0.1006076288,	 11.89200177
	 0.1526460107,	 17.95615382
	 0.2315215792,	 27.09342104
	 0.3504752165,	 40.77431337
	 0.4387344891,	 50.85703245
END
BEGIN
	 106.65008962852285 ,	 0.86006943700180682 
	 106.65553733487678 ,	 0.86020332965834889 
	 106.66093219460225 ,	 0.86033592281657978 
	 106.66627523149198 ,	 0.86046724143735076 
	 106.98198922830939 ,	 0.86822988214620578 
	 107.34286981026644 ,	 0.87712605068463256 
	 107.57609103731205 ,	 0.88289645221557478 
	 107.76893686225874 ,	 0.88768301149768958 
	 107.98434787611954 ,	 0.89304768556276548 
	 108.23155728216136 ,	 0.89923059915204784 
	 108.48058115158346 ,	 0.90549280060819015 
	 108.71909302469211 ,	 0.91153272688419384 
	 108.95456428955474 ,	 0.91755489286774583 
	 109.19478217491634 ,	 0.92379492299441135 
	 109.44069065846593 ,	 0.93034931499098772 
	 109.69207833639757 ,	 0.9373286497216804 
	 109.95575398244631 ,	 0.94506938137127128 
	 110.11051913201406 ,	 0.94981841742222817 
END
BEGIN
	 0.001105465269,	 0.1370794921
	 0.00111657965,	 0.1384432135
	 0.001127694609,	 0.1398068649
	 0.001138810142,	 0.1411704468
	 0.002027740112,	 0.2498550278
	 0.003896808425,	 0.476891866
	 0.005922806434,	 0.7216609212
	 0.008355670186,	 1.014417266
	 0.01224572319,	 1.48071077
	 0.0189360817,	 2.279148092
	 0.02928923448,	 3.50892853
	 0.04435474479,	 5.290210245
	 0.06663447626,	 7.912453895
	 0.1006076288,	 11.89200177
	 0.1526460107,	 17.95615382
	 0.2315215792,	 27.09342104
	 0.3504752165,	 40.77431337
	 0.4387344891,	 50.85703245
END
BEGIN
	 2.34647360135981e-010 ,	 1.68657230015919e-009 
	 2.37024382868274e-010 ,	 1.68657230112965e-009 
	 2.39270374238591e-010 ,	 1.68657230210701e-009 
	 2.41648571378678e-010 ,	 1.68657230310419e-009 
	 1.84573718938971e-010 ,	 1.68657257992985e-009 
	 8.50582358019603e-010 ,	 1.68657277572535e-009 
	 1.3195006756065e-009 ,	 1.68657341645157e-009 
	 1.90922875989777e-009 ,	 1.68657448452807e-009 
	 2.93775653760139e-009 ,	 1.68657683335699e-009 
	 5.0633212076226e-009 ,	 1.68658262111322e-009 
	 9.70493877969214e-009 ,	 1.68659565301065e-009 
	 2.08495208441767e-008 ,	 1.6866228631485e-009 
	 5.1869562995438e-008 ,	 1.68667979183336e-009 
	 1.51963009637629e-007 ,	 1.68680221389299e-009 
	 5.02842071398169e-007 ,	 1.68706686547721e-009 
	 1.70798298858299e-006 ,	 1.68763132322165e-009 
	 5.87042907433666e-006 ,	 1.68882217295724e-009 
	 1.15102934943323e-005 ,	 1.6899490460892e-009 
END
BEGIN
	 0.00780937171763637 ,	 2.10406444684927e-008 
	 0.00788748437408975 ,	 2.10384942665873e-008 
	 0.00796559708380683 ,	 2.10363652480999e-008 
	 0.00804370984625386 ,	 2.10342569996919e-008 
	 0.01428017646,	 2.091024595e-008
	 0.02735062873,	 2.076983019e-008
	 0.04148040444,	 2.067984262e-008
	 0.05841423269,	 2.060588108e-008
	 0.08543864799,	 2.052374718e-008
	 0.1318155527,	 2.04301298e-008
	 0.2034164795,	 2.033655807e-008
	 0.3073717896,	 2.02477146e-008
	 0.4607685198,	 2.016093365e-008
	 0.6941565669,	 2.007374466e-008
	 1.0508322949374604 ,	 1.9986730089772634e-008 
	 1.5901555977616162 ,	 1.9901837137379777e-008 
	 2.4013498223862553 ,	 1.982042691858926e-008 
	 3.00180020828875 ,	 1.9777905405423393e-008 
END
CITIFILE A.01.01
NAME PortSet5/TwoP0_Dsolver_data/first_odd_mode_is_1/most_even_mode_is_1/PMLG4/LS0

VAR freq MAG 18

DATA GAMMA_4[1] RI
DATA Z0_4[1,1] RI
DATA LAMBADAI_4[1,1] RI
DATA Zcir_4[1,1] RI
DATA Ycir_4[1,1] RI

VAR_LIST_BEGIN
	 3662237.413
	 3698859.787
	 3735482.161
	 3772104.535
	 6695944.323
	 12823498.69
	 19447440.57
	 27385689.1
	 40053836.54
	 61792862.4
	 95353208.38
	 144072403.6
	 215945561.6
	 325246982.2
	 492131012.9
	 744016811.2
	 1121611058
	 1400000000
VAR_LIST_END

BEGIN
	 0.001105465269,	 0.1370794921
	 0.00111657965,	 0.1384432135
	 0.001127694609,	 0.1398068649
	 0.001138810142,	 0.1411704468
	 0.002027740112,	 0.2498550278
	 0.003896808425,	 0.476891866
	 0.005922806434,	 0.7216609212
	 0.008355670186,	 1.014417266
	 0.01224572319,	 1.48071077
	 0.0189360817,	 2.279148092
	 0.02928923448,	 3.50892853
	 0.04435474479,	 5.290210245
	 0.06663447626,	 7.912453895
	 0.1006076288,	 11.89200177
	 0.1526460107,	 17.95615382
	 0.2315215792,	 27.09342104
	 0.3504752165,	 40.77431337
	 0.4387344891,	 50.85703245
END
BEGIN
	 106.65008962852285 ,	 0.86006943700180682 
	 106.65553733487678 ,	 0.86020332965834889 
	 106.66093219460225 ,	 0.86033592281657978 
	 106.66627523149198 ,	 0.86046724143735076 
	 106.98198922830939 ,	 0.86822988214620578 
	 107.34286981026644 ,	 0.87712605068463256 
	 107.57609103731205 ,	 0.88289645221557478 
	 107.76893686225874 ,	 0.88768301149768958 
	 107.98434787611954 ,	 0.89304768556276548 
	 108.23155728216136 ,	 0.89923059915204784 
	 108.48058115158346 ,	 0.90549280060819015 
	 108.71909302469211 ,	 0.91153272688419384 
	 108.95456428955474 ,	 0.91755489286774583 
	 109.19478217491634 ,	 0.92379492299441135 
	 109.44069065846593 ,	 0.93034931499098772 
	 109.69207833639757 ,	 0.9373286497216804 
	 109.95575398244631 ,	 0.94506938137127128 
	 110.11051913201406 ,	 0.94981841742222817 
END
BEGIN
	 0.001105465269,	 0.1370794921
	 0.00111657965,	 0.1384432135
	 0.001127694609,	 0.1398068649
	 0.001138810142,	 0.1411704468
	 0.002027740112,	 0.2498550278
	 0.003896808425,	 0.476891866
	 0.005922806434,	 0.7216609212
	 0.008355670186,	 1.014417266
	 0.01224572319,	 1.48071077
	 0.0189360817,	 2.279148092
	 0.02928923448,	 3.50892853
	 0.04435474479,	 5.290210245
	 0.06663447626,	 7.912453895
	 0.1006076288,	 11.89200177
	 0.1526460107,	 17.95615382
	 0.2315215792,	 27.09342104
	 0.3504752165,	 40.77431337
	 0.4387344891,	 50.85703245
END
BEGIN
	 2.34647360135981e-010 ,	 1.68657230015919e-009 
	 2.37024382868274e-010 ,	 1.68657230112965e-009 
	 2.39270374238591e-010 ,	 1.68657230210701e-009 
	 2.41648571378678e-010 ,	 1.68657230310419e-009 
	 1.84573718938971e-010 ,	 1.68657257992985e-009 
	 8.50582358019603e-010 ,	 1.68657277572535e-009 
	 1.3195006756065e-009 ,	 1.68657341645157e-009 
	 1.90922875989777e-009 ,	 1.68657448452807e-009 
	 2.93775653760139e-009 ,	 1.68657683335699e-009 
	 5.0633212076226e-009 ,	 1.68658262111322e-009 
	 9.70493877969214e-009 ,	 1.68659565301065e-009 
	 2.08495208441767e-008 ,	 1.6866228631485e-009 
	 5.1869562995438e-008 ,	 1.68667979183336e-009 
	 1.51963009637629e-007 ,	 1.68680221389299e-009 
	 5.02842071398169e-007 ,	 1.68706686547721e-009 
	 1.70798298858299e-006 ,	 1.68763132322165e-009 
	 5.87042907433666e-006 ,	 1.68882217295724e-009 
	 1.15102934943323e-005 ,	 1.6899490460892e-009 
END
BEGIN
	 0.00780937171763637 ,	 2.10406444684927e-008 
	 0.00788748437408975 ,	 2.10384942665873e-008 
	 0.00796559708380683 ,	 2.10363652480999e-008 
	 0.00804370984625386 ,	 2.10342569996919e-008 
	 0.01428017646,	 2.091024595e-008
	 0.02735062873,	 2.076983019e-008
	 0.04148040444,	 2.067984262e-008
